# HZ S RI R 50
1.00000000000000000000e+05 -1.74904829209483308463e-05 -1.93509080217929368105e-03 +9.99963106032546900082e-01 -8.36909143295626670178e-03 +9.99963106032547011104e-01 -8.36909143295627017123e-03 -1.49007972230098750338e-05 -1.93511247629532512869e-03
1.02305972984250853187e+05 -1.83064025667707787673e-05 -1.97970725592474042220e-03 +9.99961384901422389859e-01 -8.56207510391273143857e-03 +9.99961384901422389859e-01 -8.56207510391272796912e-03 -1.55959097047158322966e-05 -1.97973046426438460677e-03
1.04665121082542667864e+05 -1.91603827419411708538e-05 -2.02535211294595923759e-03 +9.99959583479084423985e-01 -8.75950854985563243105e-03 +9.99959583479084535007e-01 -8.75950854985563243105e-03 -1.63234473740292365814e-05 -2.02537696410996607976e-03
1.07078670498639534344e+05 -2.00541987214266683988e-05 -2.07204905679342311561e-03 +9.99957698020003893369e-01 -8.96149435475589693778e-03 +9.99957698020003893369e-01 -8.96149435475589693778e-03 -1.70849226550275152463e-05 -2.07207566706979484650e-03
1.09547875712233173545e+05 -2.09897085673312655042e-05 -2.11982231494901689206e-03 +9.99955724603937334827e-01 -9.16813746625766076703e-03 +9.99955724603937556871e-01 -9.16813746625766250176e-03 -1.78819185000301878656e-05 -2.11985080885714874052e-03
1.12074020130977951339e+05 -2.19688569934791284302e-05 -2.16869667121283565131e-03 +9.99953659127772120918e-01 -9.37954525005038619589e-03 +9.99953659127772120918e-01 -9.37954525005038619589e-03 -1.87160916830743828849e-05 -2.16872718208615047897e-03
1.14658416757562168641e+05 -2.29936794023624650914e-05 -2.21869747836467030161e-03 +9.99951497296997504627e-01 -9.59582754548550520557e-03 +9.99951497296997393605e-01 -9.59582754548550173612e-03 -1.95891762388488879342e-05 -2.21873014897451840619e-03
1.17302408872161307954e+05 -2.40663061123491220134e-05 -2.26985067110559548056e-03 +9.99949234616781090779e-01 -9.81709672246538003759e-03 +9.99949234616780979756e-01 -9.81709672246538003759e-03 -2.05029870660637802298e-05 -2.26988565432925930992e-03
1.20007370730628841557e+05 -2.51889667838815038410e-05 -2.32218277928531368834e-03 +9.99946866382619314884e-01 -1.00434677396332265598e-02 +9.99946866382619203861e-01 -1.00434677396332265598e-02 -2.14594236951579911063e-05 -2.32222023882137093911e-03
1.22774708278786885785e+05 -2.63639950500639467081e-05 -2.37572094142098197075e-03 +9.99944387670561152248e-01 -1.02750582038933901269e-02 +9.99944387670561152248e-01 -1.02750582038933901269e-02 -2.24604742354103258020e-05 -2.37576105255522937107e-03
1.25605859883188531967e+05 -2.75938333592547201405e-05 -2.43049291851331816447e-03 +9.99941793326978523027e-01 -1.05119884312917452607e-02 +9.99941793326978745071e-01 -1.05119884312917452607e-02 -2.35082194990919295260e-05 -2.43053586893895220283e-03
1.28502297078730844078e+05 -2.88810380509900899073e-05 -2.48652710816560157045e-03 +9.99939077957841648825e-01 -1.07543815092864553790e-02 +9.99939077957841537803e-01 -1.07543815092864536442e-02 -2.46048373285392857368e-05 -2.48657309886142529123e-03
1.31465525333508150652e+05 -3.02282846620943751069e-05 -2.54385255901177793209e-03 +9.99936235917518012606e-01 -1.10023633604407807679e-02 +9.99936235917518012606e-01 -1.10023633604407807679e-02 -2.57526071114328429382e-05 -2.54390180518261274645e-03
1.34497084831302287057e+05 -3.16383734827588029479e-05 -2.60249898545936034569e-03 +9.99933261297030639980e-01 -1.12560628075691129824e-02 +9.99933261297030528958e-01 -1.12560628075691147171e-02 -2.69539145205430587856e-05 -2.60255171754292724193e-03
1.37598551272117096232e+05 -3.31142353674516453396e-05 -2.66249678275325791718e-03 +9.99930147911781364023e-01 -1.15156116403690930716e-02 +9.99930147911781364023e-01 -1.15156116403690930716e-02 -2.82112564597115518506e-05 -2.66255324749842215912e-03
1.40771536691172659630e+05 -3.46589378242394895537e-05 -2.72387704236646925604e-03 +9.99926889288692111180e-01 -1.17811446835727091920e-02 +9.99926889288692000157e-01 -1.17811446835727091920e-02 -2.95272462533384336396e-05 -2.72393750398773008131e-03
1.44017690296785876853e+05 -3.62756913766407735190e-05 -2.78667156772392267394e-03 +9.99923478652753328078e-01 -1.20527998666502128566e-02 +9.99923478652753439100e-01 -1.20527998666502128566e-02 -3.09046190662359783257e-05 -2.78673630913764923400e-03
1.47338699327571841422e+05 -3.79678562318933745883e-05 -2.85091289026534900480e-03 +9.99919908912939359169e-01 -1.23307182951014303318e-02 +9.99919908912939137124e-01 -1.23307182951014268624e-02 -3.23462375838074638664e-05 -2.85098221441351272129e-03
1.50736289929412247147e+05 -3.97389492539626298711e-05 -2.91663428585358383907e-03 +9.99916172647476342306e-01 -1.26150443233694863066e-02 +9.99916172647476453328e-01 -1.26150443233694863066e-02 -3.38550979531071125593e-05 -2.91670851712114674592e-03
1.54212228052646532888e+05 -4.15926512595078947342e-05 -2.98386979153431692799e-03 +9.99912262088412440164e-01 -1.29059256294130082071e-02 +9.99912262088412329142e-01 -1.29059256294130099418e-02 -3.54343359993223590938e-05 -2.98394927726697940448e-03
1.57768320369951863540e+05 -4.35328146591688959250e-05 -3.05265422265360185025e-03 +9.99908169105476196670e-01 -1.32035132909733218809e-02 +9.99908169105476196670e-01 -1.32035132909733218809e-02 -3.70872337340919219014e-05 -3.05273933478293580876e-03
1.61406415215389308287e+05 -4.55634714498513504260e-05 -3.12302319033926816319e-03 +9.99903885189179164605e-01 -1.35079618635739386739e-02 +9.99903885189179164605e-01 -1.35079618635739386739e-02 -3.88172261654885634215e-05 -3.12311432712288625582e-03
1.65128403545103938086e+05 -4.76888415790535579136e-05 -3.19501311935252050797e-03 +9.99899401433130829986e-01 -1.38194294602906470049e-02 +9.99899401433130718964e-01 -1.38194294602906452701e-02 -4.06279084235545965187e-05 -3.19511070723738684757e-03
1.68936219920178788016e+05 -4.99133416997591398056e-05 -3.26866126631585691628e-03 +9.99894708515532859572e-01 -1.41380778333307297046e-02 +9.99894708515532637527e-01 -1.41380778333307279698e-02 -4.25230432198716031358e-05 -3.26876576193347364446e-03
1.72831843512152699986e+05 -5.22415943321374021927e-05 -3.34400573832354611886e-03 +9.99889796679805709090e-01 -1.44640724574611936187e-02 +9.99889796679805598068e-01 -1.44640724574611936187e-02 -4.45065686496247742078e-05 -3.34411763062637942476e-03
1.76817299131725681946e+05 -5.46784374494500705673e-05 -3.42108551194079697072e-03 +9.99884655714313397290e-01 -1.47975826153260627688e-02 +9.99884655714313397290e-01 -1.47975826153260627688e-02 -4.65826063633312996513e-05 -3.42120532448982744844e-03
1.80894658281185285887e+05 -5.72289345127806103669e-05 -3.49994045259765032552e-03 +9.99879274931146366789e-01 -1.51387814846940804703e-02 +9.99879274931146366789e-01 -1.51387814846940804703e-02 -4.87554701110765352024e-05 -3.50006874601187971743e-03
1.85066040231102320831e+05 -5.98983849668246548861e-05 -3.58061133438385527719e-03 +9.99873643143914248022e-01 -1.54878462276787764312e-02 +9.99873643143914248022e-01 -1.54878462276787729618e-02 -5.10296746860422527564e-05 -3.58074870896314418484e-03
1.89333613121854345081e+05 -6.26923352327464987986e-05 -3.66313986025025573046e-03 +9.99867748644496789900e-01 -1.58449580819730387327e-02 +9.99867748644496789900e-01 -1.58449580819730387327e-02 -5.34099452900546774452e-05 -3.66328695878378107417e-03
1.93699595090550341411e+05 -6.56165901968224613526e-05 -3.74756868262322287086e-03 +9.99861579178727200024e-01 -1.62103024541425631833e-02 +9.99861579178727200024e-01 -1.62103024541425631833e-02 -5.59012273218193194053e-05 -3.74772619339665182675e-03
1.98166255423941736808e+05 -6.86772252525528906567e-05 -3.83394142443706448589e-03 +9.99855121920920075773e-01 -1.65840690150213798670e-02 +9.99855121920919964751e-01 -1.65840690150213798670e-02 -5.85086966335237985905e-05 -3.83411008445259807523e-03
2.02735915737919392996e+05 -7.18805988817428992638e-05 -3.92230270059084652756e-03 +9.99848363447235932711e-01 -1.69664517972554877712e-02 +9.99848363447235932711e-01 -1.69664517972554877712e-02 -6.12377702512958337153e-05 -3.92248329901510872642e-03
2.07410951184209348867e+05 -7.52333658337332912428e-05 -4.01269813983450539252e-03 +9.99841289707786184948e-01 -1.73576492950395615267e-02 +9.99841289707786295970e-01 -1.73576492950395615267e-02 -6.40941176022947778921e-05 -4.01289152169040288370e-03
2.12193791684894968057e+05 -7.87424909120481940740e-05 -4.10517440708979466230e-03 +9.99833885997448601479e-01 -1.77578645660941211726e-02 +9.99833885997448823524e-01 -1.77578645660941177031e-02 -6.70836722613360437410e-05 -4.10538147720964329002e-03
2.17086923195406183368e+05 -8.24152633995810934711e-05 -4.19977922621116855906e-03 +9.99826136925318631477e-01 -1.81673053359299348231e-02 +9.99826136925318742499e-01 -1.81673053359299348231e-02 -7.02126442367208937001e-05 -4.20000095346958514375e-03
2.22092888996633642819e+05 -8.62593121538245870619e-05 -4.29656140319132490157e-03 +9.99818026382738866964e-01 -1.85861841044484311924e-02 +9.99818026382738755942e-01 -1.85861841044484311924e-02 -7.34875328351762595802e-05 -4.29679882503759390938e-03
2.27214291016838251380e+05 -9.02826214041493424305e-05 -4.39557084981611646823e-03 +9.99809537509839363345e-01 -1.90147182549267254603e-02 +9.99809537509839363345e-01 -1.90147182549267254603e-02 -7.69151401160013935016e-05 -4.39582507712735388872e-03
2.32453791184043686371e+05 -9.44935472792607058156e-05 -4.49685860777308040598e-03 +9.99800652660517874537e-01 -1.94531301654372427989e-02 +9.99800652660517985559e-01 -1.94531301654372462684e-02 -8.05025849740061339626e-05 -4.49713083005073323284e-03
2.37814112809614598518e+05 -9.89008351033025416349e-05 -4.60047687321757641649e-03 +9.99791353365793278307e-01 -1.99016473227526385914e-02 +9.99791353365793278307e-01 -1.99016473227526351220e-02 -8.42573178735503744820e-05 -4.60076836415164447391e-03
2.43298042003740178188e+05 -1.03513637488884024441e-04 -4.70647902180010898471e-03 +9.99781620295444484192e-01 -2.03605024387870960079e-02 +9.99781620295444706237e-01 -2.03605024387870960079e-02 -8.81871362622626642300e-05 -4.70679114522713510499e-03
2.48908429123557696585e+05 -1.08341533276489724192e-04 -4.81491963415804462290e-03 +9.99771433217869986976e-01 -2.08299335696263167306e-02 +9.99771433217869986976e-01 -2.08299335696263097917e-02 -9.23002007075224680183e-05 -4.81525385044056022932e-03
2.54648190254670189461e+05 -1.13394547342291829913e-04 -4.92585452187449361616e-03 +9.99760770958074362902e-01 -2.13101842371990930769e-02 +9.99760770958074251880e-01 -2.13101842371990930769e-02 -9.66050517702950287688e-05 -4.92621239473196338710e-03
2.60520308726826595375e+05 -1.18683171331238193407e-04 -5.03934075390652727600e-03 +9.99749611353698219851e-01 -2.18015035536439118202e-02 +9.99749611353698108829e-01 -2.18015035536439083508e-02 -1.01110627668915634700e-04 -5.03972395772951057419e-03
2.66527836664554080926e+05 -1.24218385340925315278e-04 -5.15543668348463456075e-03 +9.99737931209006336353e-01 -2.23041463484251918648e-02 +9.99737931209006447375e-01 -2.23041463484251988036e-02 -1.05826282752176408430e-04 -5.15584701116649987696e-03
2.72673896573546982836e+05 -1.30011680620245248519e-04 -5.27420197548404863508e-03 +9.99725706246721634862e-01 -2.28183732982538411971e-02 +9.99725706246721301795e-01 -2.28183732982538411971e-02 -1.10761806836652209837e-04 -5.27464134680679947592e-03
2.78961682963637053035e+05 -1.36075083304131727721e-04 -5.39569763426916721577e-03 +9.99712911057631825607e-01 -2.33444510598682548885e-02 +9.99712911057631714584e-01 -2.33444510598682548885e-02 -1.15927445427706698675e-04 -5.39616810488245668420e-03
2.85394464009190036450e+05 -1.42421179258426296600e-04 -5.51998603200975698768e-03 +9.99699519047839602059e-01 -2.38826524057316712246e-02 +9.99699519047839713082e-01 -2.38826524057316712246e-02 -1.21333920887140033797e-04 -5.52048980304523703028e-03
2.91975583247789472807e+05 -1.49063140067198703640e-04 -5.64713093746875473972e-03 +9.99685502383560242734e-01 -2.44332563627033989839e-02 +9.99685502383560242734e-01 -2.44332563627033989839e-02 -1.26992454568018134538e-04 -5.64767036583459051957e-03
2.98708461318092420697e+05 -1.56014750217537372231e-04 -5.77719754525915073912e-03 +9.99670831933351600185e-01 -2.49965483537409119408e-02 +9.99670831933351489162e-01 -2.49965483537409119408e-02 -1.32914789980417895289e-04 -5.77777515466275717881e-03
3.05596597737759060692e+05 -1.63290435544501089885e-04 -5.91025250556738001445e-03 +9.99655477207659792782e-01 -2.55728203426915899621e-02 +9.99655477207659792782e-01 -2.55728203426915899621e-02 -1.39113217019711183156e-04 -5.91087099831795297067e-03
3.12643572722381562926e+05 -1.70905292988659949149e-04 -6.04636395433887866707e-03 +9.99639406295540156044e-01 -2.61623709822320776874e-02 +9.99639406295540378089e-01 -2.61623709822320811569e-02 -1.45600597321764494395e-04 -6.04702622398477739052e-03
3.19853049046356289182e+05 -1.78875121722131530779e-04 -6.18560154392115875421e-03 +9.99622585798446761096e-01 -2.67655057650149907911e-02 +9.99622585798446872118e-01 -2.67655057650149907911e-02 -1.52390390775759783154e-04 -6.18631068878132579780e-03
3.27228773946667963173e+05 -1.87216455713979876025e-04 -6.32803647415785056052e-03 +9.99604980760935846185e-01 -2.73825371780820232825e-02 +9.99604980760935957207e-01 -2.73825371780820163436e-02 -1.59496683273825559223e-04 -6.32879581181024306741e-03
3.34774581070573418401e+05 -1.95946597793629658218e-04 -6.47374152392615059837e-03 +9.99586554598148269157e-01 -2.80137848606035883003e-02 +9.99586554598148158135e-01 -2.80137848606035883003e-02 -1.66934215724939957401e-04 -6.47455460672105923003e-03
3.42494392468199774157e+05 -2.05083655284777125177e-04 -6.62279108310857411029e-03 +9.99567269019915993766e-01 -2.86595757650051942422e-02 +9.99567269019915993766e-01 -2.86595757650051942422e-02 -1.74718414416343204758e-04 -6.62366171477916064469e-03
3.50392220631090574898e+05 -2.14646577273636856090e-04 -6.77526118498855516037e-03 +9.99547083951349502051e-01 -2.93202443215407858312e-02 +9.99547083951349613073e-01 -2.93202443215407858312e-02 -1.82865422762194004651e-04 -6.77619343843619860446e-03
3.58472170577760145534e+05 -2.24655193600533888880e-04 -6.93122953905712241296e-03 +9.99525957449721613735e-01 -2.99961326063735919667e-02 +9.99525957449721391690e-01 -2.99961326063735919667e-02 -1.91392134522288734615e-04 -6.93222777539462351598e-03
3.66738441987340978812e+05 -2.35130255638038359808e-04 -7.09077556421696449801e-03 +9.99503845617490949138e-01 -3.06875905132252546625e-02 +9.99503845617491060160e-01 -3.06875905132252546625e-02 -2.00316228541418860304e-04 -7.09184445315855574443e-03
3.75195331382431613747e+05 -2.46093478937095457709e-04 -7.25398042236762019552e-03 +9.99480702511294394341e-01 -3.13949759286537982694e-02 +9.99480702511294505364e-01 -3.13949759286538052083e-02 -2.09656205082272195563e-04 -7.25512496406081983796e-03
3.83847234362280869391e+05 -2.57567587841591046603e-04 -7.42092705235306016043e-03 +9.99456480046694406560e-01 -3.21186549110205540880e-02 +9.99456480046694406560e-01 -3.21186549110205610269e-02 -2.19431423833583918049e-04 -7.42215260075446917748e-03
3.92698647887469152920e+05 -2.69576362139980325004e-04 -7.59170020425154173233e-03 +9.99431127898511295626e-01 -3.28590018732068597784e-02 +9.99431127898511295626e-01 -3.28590018732068597784e-02 -2.29662143653768376040e-04 -7.59301249215552781502e-03
4.01754172617272590287e+05 -2.82144685856597549935e-04 -7.76638647398444122855e-03 +9.99404593396524876248e-01 -3.36163997691395141643e-02 +9.99404593396524987270e-01 -3.36163997691395211032e-02 -2.40369564137413258692e-04 -7.76779163982158245283e-03
4.11018515300927392673e+05 -2.95298598278494715819e-04 -7.94507433821795006068e-03 +9.99376821416332994374e-01 -3.43912402841854217272e-02 +9.99376821416333105397e-01 -3.43912402841854217272e-02 -2.51575869088567472508e-04 -7.94657895474819471471e-03
4.20496491224035737105e+05 -3.09065347315614171765e-04 -8.12785418952909066714e-03 +9.99347754265137444563e-01 -3.51839240294729710401e-02 +9.99347754265137444563e-01 -3.51839240294729710401e-02 -2.63304271978410399900e-04 -8.12946529456364495869e-03
4.30193026711384824011e+05 -3.23473445296449573297e-04 -8.31481837180416544220e-03 +9.99317331562235344755e-01 -3.59948607401990097743e-02 +9.99317331562235344755e-01 -3.59948607401990097743e-02 -2.75579063479417006935e-04 -8.31654350109922724243e-03
4.40113161687480518594e+05 -3.38552727312984246509e-04 -8.50606121583407162601e-03 +9.99285490113965502168e-01 -3.68244694779780792904e-02 +9.99285490113965391146e-01 -3.68244694779780792904e-02 -2.88425661172354527197e-04 -8.50790843830991072583e-03
4.50262052296126028523e+05 -3.54334412229519439986e-04 -8.70167907506746995949e-03 +9.99252163782842206530e-01 -3.76731788372893158789e-02 +9.99252163782841984485e-01 -3.76731788372893158789e-02 -3.01870661519818071598e-04 -8.70365703051715136618e-03
4.60644973580408142880e+05 -3.70851166462583630139e-04 -8.90177036147916413145e-03 +9.99217283350631535477e-01 -3.85414271560763008195e-02 +9.99217283350631535477e-01 -3.85414271560763008195e-02 -3.15941894204349485280e-04 -8.90388830094258204584e-03
4.71267322224481846206e+05 -3.88137170671468264768e-04 -9.10643558150606852175e-03 +9.99180776375071744155e-01 -3.94296627305521160678e-02 +9.99180776375071744155e-01 -3.94296627305521160678e-02 -3.30668478943272464970e-04 -9.10870341049756920837e-03
4.82134619358580792323e+05 -4.06228189473231931887e-04 -9.31577737199921172839e-03 +9.99142567039953299890e-01 -4.03383440342611615526e-02 +9.99142567039953299890e-01 -4.03383440342611615526e-02 -3.46080884880662199930e-04 -9.31820569679030728805e-03
4.93252513428710342851e+05 -4.25161644325451300915e-04 -9.52990053613497929696e-03 +9.99102575998249142764e-01 -4.12679399414467851237e-02 +9.99102575998249142764e-01 -4.12679399414467851237e-02 -3.62210992678923344914e-04 -9.53250071330779061296e-03
5.04626783132514741737e+05 -4.44976689711175084439e-04 -9.74891207922372847461e-03 +9.99060720207981423080e-01 -4.22189299547713406402e-02 +9.99060720207981534102e-01 -4.22189299547713406402e-02 -3.79092159423374494044e-04 -9.75169626872597269940e-03
5.16263340422844688874e+05 -4.65714292772570395001e-04 -9.97292124434772005170e-03 +9.99016912760484654399e-01 -4.31918044374333745528e-02 +9.99016912760484654399e-01 -4.31918044374333745528e-02 -3.96759286464577753950e-04 -9.97590246629642511678e-03
5.28168233580586616881e+05 -4.87417316544880015010e-04 -1.02020395477550474689e-02 +9.98971062700712675309e-01 -4.41870648497225196327e-02 +9.98971062700712786331e-01 -4.41870648497225196327e-02 -4.15248890326060061604e-04 -1.02052317432534990493e-02
5.40347650358349899761e+05 -5.10130606943634047103e-04 -1.04363808139286921156e-02 +9.98923074839238922529e-01 -4.52052239900512173310e-02 +9.98923074839238922529e-01 -4.52052239900512242698e-02 -4.34599176815768655120e-04 -1.04397989101797632888e-02
5.52807921196647570468e+05 -5.33901083676183315328e-04 -1.06760612102434690462e-02 +9.98872849555549224831e-01 -4.62468062404965893353e-02 +9.98872849555549002787e-01 -4.62468062404965754575e-02 -4.54850118470987167980e-04 -1.06797211902625449609e-02
5.65555522514241049066e+05 -5.58777835238206499295e-04 -1.09211992811159425143e-02 +9.98820282592242425501e-01 -4.73123478168837319213e-02 +9.98820282592242425501e-01 -4.73123478168837319213e-02 -4.76043535492667998707e-04 -1.09251182583675592735e-02
5.78597080074358265847e+05 -5.84812218175830901036e-04 -1.11719159815438940503e-02 +9.98765264839720279255e-01 -4.84023970234362457821e-02 +9.98765264839720279255e-01 -4.84023970234362527210e-02 -4.98223180309006769689e-04 -1.11761122798496662090e-02
5.91939372428537113592e+05 -6.12057960800075294937e-04 -1.14283347099234273980e-02 +9.98707682110918093521e-01 -4.95175145120145682176e-02 +9.98707682110917982499e-01 -4.95175145120145751565e-02 -5.21434825931479874368e-04 -1.14328279490126735740e-02
