# HZ S RI R 50
1.00000000000000000000e+05 -1.82486213212602714495e-03 -1.33601832573793412318e-02 +9.92908834255690209147e-01 -1.18111058917162364823e-01 +9.92908834255690209147e-01 -1.18111058917162364823e-01 -1.36022273111173052501e-03 -1.34154542447803004634e-02
1.02305972984250853187e+05 -1.90920587004653067101e-03 -1.36582184354875693644e-02 +9.92578376731582667780e-01 -1.20822075991976751741e-01 +9.92578376731582889825e-01 -1.20822075991976779497e-01 -1.42310305760480829140e-03 -1.37173895320191162328e-02
1.04665121082542667864e+05 -1.99740930362401949288e-03 -1.39624196164209665727e-02 +9.92232536631924233461e-01 -1.23594718509756618108e-01 +9.92232536631924233461e-01 -1.23594718509756618108e-01 -1.48886203114234746611e-03 -1.40257654095398420768e-02
1.07078670498639534344e+05 -2.08964536007340663873e-03 -1.42728795207655301258e-02 +9.91870599537142627611e-01 -1.26430344721054521706e-01 +9.91870599537142627611e-01 -1.26430344721054521706e-01 -1.55762873734475006463e-03 -1.43406938556599090895e-02
1.09547875712233173545e+05 -2.18609435766653047856e-03 -1.45896895721884453656e-02 +9.91491818001617786216e-01 -1.29330339771810631788e-01 +9.91491818001617786216e-01 -1.29330339771810631788e-01 -1.62953779037472825178e-03 -1.46622868933596710306e-02
1.12074020130977951339e+05 -2.28694428666545998899e-03 -1.49129396323644178302e-02 +9.91095410041477498098e-01 -1.32296116012778908200e-01 +9.91095410041477498098e-01 -1.32296116012778908200e-01 -1.70472954426925801460e-03 -1.49906564175739907829e-02
1.14658416757562168641e+05 -2.39239109737069332792e-03 -1.52427177140980925352e-02 +9.90680557554493024242e-01 -1.35329113294381325749e-01 +9.90680557554492802197e-01 -1.35329113294381297994e-01 -1.78335030976684320511e-03 -1.53259140069072069545e-02
1.17302408872161307954e+05 -2.50263899504701977858e-03 -1.55791096711471281633e-02 +9.90246404669192226145e-01 -1.38430799245155555788e-01 +9.90246404669192004100e-01 -1.38430799245155528032e-01 -1.86555257646991556192e-03 -1.56681707186763150008e-02
1.20007370730628841557e+05 -2.61790074144879064688e-03 -1.59221988631517812063e-02 +9.89792056020119770388e-01 -1.41602669531808805781e-01 +9.89792056020119881410e-01 -1.41602669531808833536e-01 -1.95149524015832001936e-03 -1.60175368661186305619e-02
1.22774708278786885785e+05 -2.73839796258474113544e-03 -1.62720657939879366494e-02 +9.89316574946114579703e-01 -1.44846248098743829447e-01 +9.89316574946114579703e-01 -1.44846248098743829447e-01 -2.04134383500446155851e-03 -1.63741217765305015208e-02
1.25605859883188531967e+05 -2.86436146228430388305e-03 -1.66287877217538813956e-02 +9.88818981608331482036e-01 -1.48163087384750147280e-01 +9.88818981608331482036e-01 -1.48163087384750147280e-01 -2.13527077039137513567e-03 -1.67380335290285876815e-02
1.28502297078730844078e+05 -2.99603154105635999943e-03 -1.69924382384987644745e-02 +9.88298251024591789538e-01 -1.51554768514379850641e-01 +9.88298251024591789538e-01 -1.51554768514379850641e-01 -2.23345557198096397039e-03 -1.71093786705475703336e-02
1.31465525333508150652e+05 -3.13365831960498841119e-03 -1.73630868176920354073e-02 +9.87753311016574597758e-01 -1.55022901461338236118e-01 +9.87753311016574597758e-01 -1.55022901461338236118e-01 -2.33608512659155614574e-03 -1.74882619086077079062e-02
1.34497084831302287057e+05 -3.27750206630381211298e-03 -1.77407983273128871948e-02 +9.87183040066148875802e-01 -1.58569125181013376169e-01 +9.87183040066148875802e-01 -1.58569125181013376169e-01 -2.44335393038942489535e-03 -1.78747857792999863269e-02
1.37598551272117096232e+05 -3.42783352776175869597e-03 -1.81256325063269378706e-02 +9.86586265077108559574e-01 -1.62195107709055985623e-01 +9.86586265077108559574e-01 -1.62195107709055985623e-01 -2.55546433979951005677e-03 -1.82690502888484679334e-02
1.40771536691172659630e+05 -3.58493426152341632812e-03 -1.85176434021857468093e-02 +9.85961759038350482598e-01 -1.65902546222686714250e-01 +9.85961759038350371576e-01 -1.65902546222686714250e-01 -2.67262682444488215011e-03 -1.86711525270192024717e-02
1.44017690296785876853e+05 -3.74909696978029116643e-03 -1.89168787668606563912e-02 +9.85308238584446938191e-01 -1.69693167061160193887e-01 +9.85308238584446605124e-01 -1.69693167061160166131e-01 -2.79506022133684580572e-03 -1.90811862505458409989e-02
1.47338699327571841422e+05 -3.92062583280615439829e-03 -1.93233794087882548851e-02 +9.84624361449401908075e-01 -1.73568725701554238405e-01 +9.84624361449402019097e-01 -1.73568725701554266161e-01 -2.92299198939612470821e-03 -1.94992414346501358180e-02
1.50736289929412247147e+05 -4.09983684066409555941e-03 -1.97371784979670956972e-02 +9.83908723809255092441e-01 -1.77531006685766767905e-01 +9.83908723809254870396e-01 -1.77531006685766767905e-01 -3.05665846328067106197e-03 -1.99254037906271101732e-02
1.54212228052646532888e+05 -4.28705812152248982860e-03 -2.01583008213048683888e-02 +9.83159857509014467603e-01 -1.81581823494303212785e-01 +9.83159857509014578625e-01 -1.81581823494303240540e-01 -3.19630510534074045031e-03 -2.03597542473652123873e-02
1.57768320369951863540e+05 -4.48263026471832151665e-03 -2.05867619851693578470e-02 +9.82376227169275861861e-01 -1.85723018362114633550e-01 +9.82376227169275861861e-01 -1.85723018362114633550e-01 -3.34218675437503599107e-03 -2.08023683945618396984e-02
1.61406415215389308287e+05 -4.68690663643658335380e-03 -2.10225675619543223016e-02 +9.81556227167753481133e-01 -1.89956462031408090940e-01 +9.81556227167753481133e-01 -1.89956462031408118696e-01 -3.49456786967749285372e-03 -2.12533158852877823719e-02
1.65128403545103938086e+05 -4.90025368565431915929e-03 -2.14657121773132175679e-02 +9.80698178490724492562e-01 -1.94284053435974324309e-01 +9.80698178490724492562e-01 -1.94284053435974268798e-01 -3.65372276869492269152e-03 -2.17126597954405316238e-02
1.68936219920178788016e+05 -5.12305123766786888601e-03 -2.19161785345734841379e-02 +9.79800325449322162541e-01 -1.98707719311200292633e-01 +9.79800325449322384586e-01 -1.98707719311200264878e-01 -3.81993585639175611823e-03 -2.21804559375167326118e-02
1.72831843512152699986e+05 -5.35569277223236182850e-03 -2.23739363726852755199e-02 +9.78860832255393442658e-01 -2.03229413723507473799e-01 +9.78860832255393442658e-01 -2.03229413723507529310e-01 -3.99350184419871266639e-03 -2.26567521260195720023e-02
1.76817299131725681946e+05 -5.59858568298916836614e-03 -2.28389413539100902262e-02 +9.77877779451492790130e-01 -2.07851117512515670693e-01 +9.77877779451493123197e-01 -2.07851117512515698449e-01 -4.17472595617432353649e-03 -2.31415873917058569076e-02
1.80894658281185285887e+05 -5.85215151446678502611e-03 -2.33111338773096532506e-02 +9.76849160189464216231e-01 -2.12574837638759617242e-01 +9.76849160189464327253e-01 -2.12574837638759589487e-01 -4.36392411973150241844e-03 -2.36349911417660304980e-02
1.85066040231102320831e+05 -6.11682617254090919834e-03 -2.37904378139462135966e-02 +9.75772876351843621023e-01 -2.17402606429280054190e-01 +9.75772876351843510001e-01 -2.17402606429280054190e-01 -4.56142313799319520928e-03 -2.41369822629197844366e-02
1.89333613121854345081e+05 -6.39306010377158583091e-03 -2.42767591595688739248e-02 +9.74646734510218659686e-01 -2.22336480712869599685e-01 +9.74646734510218548664e-01 -2.22336480712869599685e-01 -4.76756084049542987885e-03 -2.46475681643102476071e-02
1.93699595090550341411e+05 -6.68131843854727520970e-03 -2.47699846004292359436e-02 +9.73468441714483656568e-01 -2.27378540836185527585e-01 +9.73468441714483656568e-01 -2.27378540836185527585e-01 -4.98268620863036738183e-03 -2.51667437569721985646e-02
1.98166255423941736808e+05 -6.98208109242197047517e-03 -2.52699799877468753162e-02 +9.72235601106803515314e-01 -2.32530889551323144415e-01 +9.72235601106803404292e-01 -2.32530889551323144415e-01 -5.20715947180834352881e-03 -2.56944903665638144097e-02
2.02735915737919392996e+05 -7.29584281943475645993e-03 -2.57765887162404935817e-02 +9.70945707353945253182e-01 -2.37795650764801719257e-01 +9.70945707353945253182e-01 -2.37795650764801719257e-01 -5.44135216990674491777e-03 -2.62307745759663979435e-02
2.07410951184209348867e+05 -7.62311321057965868286e-03 -2.62896300020428810851e-02 +9.69596141891459373241e-01 -2.43174968137206681806e-01 +9.69596141891459373241e-01 -2.43174968137206681806e-01 -5.68564717712431288293e-03 -2.67755469942798016159e-02
2.12193791684894968057e+05 -7.96441662986439001537e-03 -2.68088970552554234361e-02 +9.68184167973110576533e-01 -2.48671003522007466602e-01 +9.68184167973110576533e-01 -2.48671003522007466602e-01 -5.94043868184313678116e-03 -2.73287409486900056965e-02
2.17086923195406183368e+05 -8.32029207967288630954e-03 -2.73341551423415679567e-02 +9.66706925518754256466e-01 -2.54285935231269022427e-01 +9.66706925518754256466e-01 -2.54285935231269022427e-01 -6.20613211657419609757e-03 -2.78902710956399763065e-02
2.22092888996633642819e+05 -8.69129298629705594748e-03 -2.78651395335508672568e-02 +9.65161425753773061231e-01 -2.60021956115144059485e-01 +9.65161425753773061231e-01 -2.60021956115144114996e-01 -6.48314403147140505546e-03 -2.84600319477177135519e-02
2.27214291016838251380e+05 -9.07798689562686923760e-03 -2.84015533305772907569e-02 +9.63544545633038929111e-01 -2.65881271441133160138e-01 +9.63544545633039151156e-01 -2.65881271441133215649e-01 -6.77190190426654910205e-03 -2.90378963126771347247e-02
2.32453791184043686371e+05 -9.48095506802141760327e-03 -2.89430651697206720030e-02 +9.61853022042253313906e-01 -2.71866096558146086437e-01 +9.61853022042253313906e-01 -2.71866096558146086437e-01 -7.07284387878790062054e-03 -2.96237136410483353766e-02
2.37814112809614598518e+05 -9.90079196033742323091e-03 -2.94893067959267757283e-02 +9.60083445769417842541e-01 -2.77978654329384289312e-01 +9.60083445769417842541e-01 -2.77978654329384289312e-01 -7.38641842349426966385e-03 -3.02173082788529737130e-02
2.43298042003740178188e+05 -1.03381045819754963100e-02 -3.00398705032520682567e-02 +9.58232255239075847442e-01 -2.84221172316974191041e-01 +9.58232255239075847442e-01 -2.84221172316974191041e-01 -7.71308390064957653809e-03 -3.08184776220623776744e-02
2.48908429123557696585e+05 -1.07935117105820779781e-02 -3.05943064375333723115e-02 +9.56295730001899824124e-01 -2.90595879700131065615e-01 +9.56295730001899824124e-01 -2.90595879700131065615e-01 -8.05330803591152409593e-03 -3.14269901695802197916e-02
2.54648190254670189461e+05 -1.12676429517546729253e-02 -3.11521197573526309466e-02 +9.54269983972105384495e-01 -2.97105003907393139251e-01 +9.54269983972105384495e-01 -2.97105003907393139251e-01 -8.40756727717747141815e-03 -3.20425834717551899500e-02
2.60520308726826595375e+05 -1.17611376256803214224e-02 -3.17127676497938881806e-02 +9.52150958405123537531e-01 -3.03750766942150474126e-01 +9.52150958405123537531e-01 -3.03750766942150418615e-01 -8.77634603056101809948e-03 -3.26649619716885900034e-02
2.66527836664554080926e+05 -1.22746434621574494750e-02 -3.22756561979910608362e-02 +9.49934414607916499662e-01 -3.10535381379289598947e-01 +9.49934414607916499662e-01 -3.10535381379289598947e-01 -9.16013576028144177466e-03 -3.32937947369659065222e-02
2.72673896573546982836e+05 -1.28088150838172182278e-02 -3.28401370980912765685e-02 +9.47615926374303363389e-01 -3.17461046009266945056e-01 +9.47615926374303363389e-01 -3.17461046009266945056e-01 -9.55943393815356957932e-03 -3.39287130798521519015e-02
2.78961682963637053035e+05 -1.33643122556674973089e-02 -3.34055042240149341337e-02 +9.45190872137632642769e-01 -3.24529941104318320200e-01 +9.45190872137632975836e-01 -3.24529941104318264689e-01 -9.97474282713109970666e-03 -3.45693080645282854735e-02
2.85394464009190036450e+05 -1.39417978772337705640e-02 -3.39709900393089445081e-02 +9.42654426833178016309e-01 -3.31744223279790750869e-01 +9.42654426833178016309e-01 -3.31744223279790639847e-01 -1.04065680820876107354e-02 -3.52151279005677511624e-02
2.91975583247789472807e+05 -1.45419356916371388111e-02 -3.45357618564734042410e-02 +9.40001553462634809044e-01 -3.39106019921743662149e-01 +9.40001553462634809044e-01 -3.39106019921743662149e-01 -1.08554171496610604719e-02 -3.58656752226080566270e-02
2.98708461318092420697e+05 -1.51653876838674372962e-02 -3.50989179454344116249e-02 +9.37226994353194231557e-01 -3.46617423149984615893e-01 +9.37226994353194120535e-01 -3.46617423149984671404e-01 -1.13217974475322835648e-02 -3.65204042570641193577e-02
3.05596597737759060692e+05 -1.58128111383488700881e-02 -3.56594834943361957413e-02 +9.34325262103710252326e-01 -3.54280483283588853993e-01 +9.34325262103710030281e-01 -3.54280483283588853993e-01 -1.18062143020150056572e-02 -3.71787178777699955923e-02
3.12643572722381562926e+05 -1.64848553235653026705e-02 -3.62164064276019673216e-02 +9.31290630210628300745e-01 -3.62097201773671384384e-01 +9.31290630210628411767e-01 -3.62097201773671439895e-01 -1.23091686212107830067e-02 -3.78399645536663387091e-02
3.19853049046356289182e+05 -1.71821577691123918152e-02 -3.67685530882526923069e-02 +9.28117123366458129929e-01 -3.70069523565724811665e-01 +9.28117123366458129929e-01 -3.70069523565724811665e-01 -1.28311542793408811525e-02 -3.85034351930588422674e-02
3.27228773946667963173e+05 -1.79053400980019525313e-02 -3.73147037938497891374e-02 +9.24798507423781557257e-01 -3.78199328851199223500e-01 +9.24798507423781557257e-01 -3.78199328851199223500e-01 -1.33726551861057842141e-02 -3.91683598906233387815e-02
3.34774581070573418401e+05 -1.86550033744038272487e-02 -3.78535482781560614352e-02 +9.21328279017965656728e-01 -3.86488424165132848920e-01 +9.21328279017965767750e-01 -3.86488424165132793409e-01 -1.39341420131325922915e-02 -3.98339045852093009970e-02
3.42494392468199774157e+05 -1.94317229242753457263e-02 -3.83836810337520248360e-02 +9.17699654842064505011e-01 -3.94938532783581430774e-01 +9.17699654842064393989e-01 -3.94938532783581486285e-01 -1.45160685476940602701e-02 -4.04991676386722218584e-02
3.50392220631090574898e+05 -2.02360425835153012741e-02 -3.89035965744245759712e-02 +9.13905560567649377646e-01 -4.03551284371222618308e-01 +9.13905560567649155601e-01 -4.03551284371222507286e-01 -1.51188676420035902903e-02 -4.11631763484184565183e-02
3.58472170577760145534e+05 -2.10684683253852811369e-02 -3.94116846402415149653e-02 +9.09938619405696980103e-01 -4.12328203825903516488e-01 +9.09938619405696647036e-01 -4.12328203825903349955e-01 -1.57429467244289029992e-02 -4.18248834091788854184e-02
3.66738441987340978812e+05 -2.19294612160151544678e-02 -3.99062253728869886782e-02 +9.05791140302091735137e-01 -4.21270699262956294096e-01 +9.05791140302091735137e-01 -4.21270699262956405118e-01 -1.63886828370307900682e-02 -4.24831633427121546642e-02
3.75195331382431613747e+05 -2.28194296438713958852e-02 -4.03853844941014228365e-02 +9.01455105762780095624e-01 -4.30380049077795812096e-01 +9.01455105762780095624e-01 -4.30380049077795756585e-01 -1.70564171619046432704e-02 -4.31368089177571537030e-02
3.83847234362280869391e+05 -2.37387207661396010261e-02 -4.08472085260583039901e-02 +8.96922159304191390916e-01 -4.39657388020630146563e-01 +8.96922159304191279894e-01 -4.39657388020630257586e-01 -1.77464489968907103423e-02 -4.37845275866347652394e-02
3.92698647887469152920e+05 -2.46876111121160576878e-02 -4.12896200992451251066e-02 +8.92183592525216950797e-01 -4.49103692211982652438e-01 +8.92183592525216950797e-01 -4.49103692211982541416e-01 -1.84590291394005692749e-02 -4.44249379694986734624e-02
4.01754172617272590287e+05 -2.56662962809708003475e-02 -4.17104134010223975837e-02 +8.87230331797836724306e-01 -4.58719763022080395665e-01 +8.87230331797836946350e-01 -4.58719763022080617709e-01 -1.91943526353964485920e-02 -4.50565664223853273862e-02
4.11018515300927392673e+05 -2.66748796686884018237e-02 -4.21072498265635530856e-02 +8.82052924574371566280e-01 -4.68506209730994827023e-01 +8.82052924574371566280e-01 -4.68506209730994938045e-01 -1.99525508490182822141e-02 -4.56778437309926510501e-02
4.20496491224035737105e+05 -2.77133601567114973285e-02 -4.24776539034539685202e-02 +8.76641525310444480468e-01 -4.78463430879580708943e-01 +8.76641525310444591490e-01 -4.78463430879580819965e-01 -2.07336828070188092243e-02 -4.62871019785765919208e-02
4.30193026711384824011e+05 -2.87816186928856118654e-02 -4.28190095719396535134e-02 +8.70985881004016526674e-01 -4.88591594213768798394e-01 +8.70985881004016193607e-01 -4.88591594213768798394e-01 -2.15377257711615865965e-02 -4.68825716435304490348e-02
4.40113161687480518594e+05 -2.98794036938565335526e-02 -4.31285569147676905999e-02 +8.65075316352341139314e-01 -4.98890615116425739650e-01 +8.65075316352341028292e-01 -4.98890615116425850672e-01 -2.23645649910666419191e-02 -4.74623789902186427048e-02
4.50262052296126028523e+05 -3.10063151972239381404e-02 -4.34033894438870943011e-02 +8.58898718530527349735e-01 -5.09360133411803084336e-01 +8.58898718530527349735e-01 -5.09360133411803084336e-01 -2.32139825898397267334e-02 -4.80245438254854328797e-02
4.60644973580408142880e+05 -3.21617876917074732579e-02 -4.36404520660837458301e-02 +8.52444521597511606359e-01 -5.19999488417374311489e-01 +8.52444521597511606359e-01 -5.19999488417374311489e-01 -2.40856455352416315430e-02 -4.85669777030578592170e-02
4.71267322224481846206e+05 -3.33450715544503159538e-02 -4.38365398660491012439e-02 +8.45700690537838251082e-01 -5.30807692106494810602e-01 +8.45700690537838251082e-01 -5.30807692106494810602e-01 -2.49790926503128257741e-02 -4.90874826688658255636e-02
4.82134619358580792323e+05 -3.45552130266996507246e-02 -4.39882978635588589578e-02 +8.38654704950757778903e-01 -5.41783400232697776033e-01 +8.38654704950757667881e-01 -5.41783400232697665011e-01 -2.58937206194372951384e-02 -4.95837506521671772530e-02
4.93252513428710342851e+05 -3.57910326626142763495e-02 -4.40922219215020561034e-02 +8.31293542401867813219e-01 -5.52924881252347844018e-01 +8.31293542401867813219e-01 -5.52924881252347844018e-01 -2.68287689489545219668e-02 -5.00533636203894377603e-02
5.04626783132514741737e+05 -3.70511021912514615373e-02 -4.41446610036028280755e-02 +8.23603661457100511001e-01 -5.64229982866693013932e-01 +8.23603661457100511001e-01 -5.64229982866693013932e-01 -2.77833038458718123431e-02 -5.04937946298108786269e-02
5.16263340422844688874e+05 -3.83337197392196321610e-02 -4.41418210049289161390e-02 +8.15570984424312639405e-01 -5.75696095986832578895e-01 +8.15570984424312750427e-01 -5.75696095986832689917e-01 -2.87562009842243920810e-02 -5.09024099196798973654e-02
5.28168233580586616881e+05 -3.96368833714299123594e-02 -4.40797704048678934408e-02 +8.07180879834444642285e-01 -5.87320115905581086047e-01 +8.07180879834444642285e-01 -5.87320115905581086047e-01 -2.97461271364574397769e-02 -5.12764722141443862746e-02
5.40347650358349899761e+05 -4.09582629204142678603e-02 -4.39544480212247096196e-02 +7.98418144702295551340e-01 -5.99098400438388689615e-01 +7.98418144702295551340e-01 -5.99098400438388689615e-01 -3.07515206572397600815e-02 -5.16131454144744261647e-02
5.52807921196647570468e+05 -4.22951700913011680028e-02 -4.37616731756560045641e-02 +7.89266986616863008841e-01 -6.11026724771144280624e-01 +7.89266986616863008841e-01 -6.11026724771144280624e-01 -3.17705708197112135505e-02 -5.19095008835062515784e-02
5.65555522514241049066e+05 -4.36445268504706551660e-02 -4.34971586147903793718e-02 +7.79711005723161765246e-01 -6.23100232725532610090e-01 +7.79711005723161654224e-01 -6.23100232725532499067e-01 -3.28011960198014568268e-02 -5.21625255449948144193e-02
5.78597080074358265847e+05 -4.50028321319120017119e-02 -4.31565265682352511289e-02 +7.69733176672050434242e-01 -6.35313384122375812701e-01 +7.69733176672050434242e-01 -6.35313384122375812701e-01 -3.38410208834333953165e-02 -5.23691320425964251806e-02
5.91939372428537113592e+05 -4.63661269272896969795e-02 -4.27353283641640352419e-02 +7.59315830632294130886e-01 -6.47659897889747981914e-01 +7.59315830632294130886e-01 -6.47659897889747981914e-01 -3.48873523347558098240e-02 -5.25261712263615926366e-02
